<Qucs Dataset 0.0.15>
<indep x 10>
  +5.00000000000e+00
  +1.00000000000e+01
  +1.50000000000e+01
  +2.00000000000e+01
  +2.50000000000e+01
  +3.00000000000e+01
  +3.50000000000e+01
  +4.00000000000e+01
  +4.50000000000e+01
  +5.00000000000e+01
</indep>
<dep V1.I x>
  -1.34166666667e+00
  -9.47058823529e-01
  -7.31818181818e-01
  -5.96296296296e-01
  -5.03125000000e-01
  -4.35135135135e-01
  -3.83333333333e-01
  -3.42553191489e-01
  -3.09615384615e-01
  -2.82456140351e-01
</dep>
<dep izeja.V x>
  +6.70833333333e+00
  +9.47058823529e+00
  +1.09772727273e+01
  +1.19259259259e+01
  +1.25781250000e+01
  +1.30540540541e+01
  +1.34166666667e+01
  +1.37021276596e+01
  +1.39326923077e+01
  +1.41228070175e+01
</dep>
<dep _net0.V x>
  +1.61000000000e+01
  +1.61000000000e+01
  +1.61000000000e+01
  +1.61000000000e+01
  +1.61000000000e+01
  +1.61000000000e+01
  +1.61000000000e+01
  +1.61000000000e+01
  +1.61000000000e+01
  +1.61000000000e+01
</dep>
